!Agilent N9923A: A.07.32
!Date: Tuesday, 30 August 2016 11:27:37
!Model: N9923A
!Serial: MY52412305
!GPS Latitude:
!GPS Longitude:
!GPS TimeStamp: 0001-01-01 00:00:00Z
!GPS Seconds Since Last Read: 0
!CHECKSUM:1215034060
!Correction: S11(Rdy)
!S1P File: Measurement: S11:
# Hz S DB R 50
50000000	-9.8979619320225	76.579629778298
51000000	-9.27906076143303	-127.600244590096
52000000	-10.100733288104	29.8411862570425
53000000	-9.56504088100868	-172.129858903475
54000000	-10.0822200650515	-18.5829875519872
55000000	-9.96209962868497	143.295807641202
56000000	-9.98301863817196	-66.2619185964772
57000000	-10.3423836128044	97.5078514099806
58000000	-9.93992009677554	-111.091147616184
59000000	-10.6993178352921	49.7798642478383
60000000	-9.98201955951191	-154.084582406607
61000000	-11.0046025529199	0.455452910175603
62000000	-10.1376191107867	161.739425923286
63000000	-11.0258135811624	-47.5750529630313
64000000	-10.5423201224882	116.578298973245
65000000	-10.7764688375734	-94.0327261486648
66000000	-11.0928371462038	71.6637954450696
67000000	-10.6731175517332	-140.02803007283
68000000	-11.4823138325581	23.9540742993237
69000000	-10.7222655346995	176.241724764782
70000000	-11.7527555314001	-25.8157528024672
71000000	-10.8456751685554	133.470129091334
72000000	-11.8518346402834	-74.8661630429002
73000000	-11.092089364553	90.3582284331151
74000000	-11.8666079447972	-122.632156043203
75000000	-11.4049415944256	44.8729887393314
76000000	-11.7835435305413	-167.579761020154
77000000	-11.9237650365019	-2.59814751530381
78000000	-11.6171684814562	147.951934778224
79000000	-12.3883623092368	-50.4447123027666
80000000	-11.5277200882907	104.491847518284
81000000	-12.779153142238	-97.6747251270058
82000000	-11.6420878895933	59.5684558931272
83000000	-12.7735430002515	-144.985535869509
84000000	-11.9284590573937	16.0467993634891
85000000	-12.8276071144872	167.362228044073
86000000	-12.2396831453509	-29.8794158928848
87000000	-12.6136864527503	122.40214435868
88000000	-12.7402327477626	-74.959433044343
89000000	-12.4752487669425	76.9362542945269
90000000	-13.0981334946382	-121.115867840322
91000000	-12.4924676636095	32.6748418606586
92000000	-13.3800566734432	-169.274824968535
93000000	-12.5100669724228	-11.5597545462544
94000000	-13.4585439253557	144.301158230595
95000000	-12.8007863837635	-55.9413615142332
96000000	-13.3565397319748	97.8189926867056
97000000	-13.2515525835066	-101.624078661102
98000000	-13.167296264647	51.310356168364
99000000	-13.542535537377	-147.627585602446
100000000	-13.1706659085359	7.70875016966867
101000000	-13.8627945393326	164.378124617184
102000000	-13.3148748301764	-37.6229840914602
103000000	-13.6814934254999	117.141582149412
104000000	-13.7072060200473	-80.3115804288284
105000000	-13.5940376259656	70.6883531446842
106000000	-14.2501991308468	-127.693549567391
107000000	-13.2102486931925	26.3579616676836
108000000	-14.8422307078252	-173.782690462064
109000000	-13.3378471990773	-19.1659557612298
110000000	-14.6531709881555	136.394679533582
111000000	-13.6929521821452	-59.8303795681967
112000000	-14.4258980870605	87.4510923396621
113000000	-14.3096577287877	-103.286246679823
114000000	-13.9613625425858	40.6537671851303
115000000	-15.0130113501612	-149.512681400722
116000000	-13.6316763442347	-1.22079327128047
117000000	-15.8799139308691	159.42549632192
118000000	-13.4524283910519	-43.2772532702416
119000000	-15.9433259149237	108.008815443489
120000000	-13.8680345571585	-83.8715964720759
121000000	-15.3006289783819	56.7567020871042
122000000	-14.4799444275865	-124.084390995601
123000000	-14.8257839876635	10.0441393111859
124000000	-15.4267072982256	-172.083578863029
125000000	-14.2843395685957	-30.2937861608814
126000000	-16.5561311865324	135.046668669816
127000000	-13.7822677349376	-67.9948133178728
128000000	-17.3884413178822	82.4040547558202
129000000	-14.0244054524969	-110.963579061976
130000000	-16.534106555116	31.2538998508609
131000000	-14.8053708637254	-151.449866676853
132000000	-15.6824016189715	-15.3100035623289
133000000	-15.7720330497755	163.653637106582
134000000	-15.1033300968486	-55.4469752377671
135000000	-17.1004902720205	111.14686835932
136000000	-14.3988490638666	-94.2114086674603
137000000	-18.4900739903961	58.7268340779772
138000000	-14.3794389178016	-142.546213527264
139000000	-16.8310906923649	16.3859621999699
140000000	-15.8675859104047	-178.398257861346
141000000	-16.2520408170236	-37.0438139379905
142000000	-16.4307494836346	135.708231931294
143000000	-15.8861902513493	-80.4630186021916
144000000	-17.0090787370859	85.015382526261
145000000	-15.7127271373035	-120.108069744195
146000000	-17.3751838189613	33.5172849537352
147000000	-15.8031678446949	-161.964347291721
148000000	-17.1988594371513	-13.442774662376
149000000	-16.6636309558008	151.019191676633
150000000	-16.1194771753532	-58.4114141530709
151000000	-17.6539133306143	109.281240393787
152000000	-16.0528003938255	-104.49144156836
153000000	-17.7837246927935	59.8872747619333
154000000	-16.2826528158334	-146.050749775272
155000000	-17.7380370527865	8.97898980428508
156000000	-16.555866048062	171.407472736077
157000000	-17.3729179625467	-36.6488454348783
158000000	-17.3511966412472	126.986342362146
159000000	-16.956355657396	-82.777075854974
160000000	-18.0187518502898	80.0701867256075
161000000	-16.8216221833998	-128.460630549188
162000000	-18.0706774595977	31.8375220127134
163000000	-17.0394896489541	-170.499274016288
164000000	-18.0874122105838	-16.4062507626485
165000000	-17.4765576359847	145.576040716984
166000000	-17.8468862436599	-64.8321478796662
167000000	-17.7643370575443	101.187898299975
168000000	-17.7032247160893	-108.733766823354
169000000	-18.398992425505	55.1915474179484
170000000	-17.4916935580852	-154.168420173262
171000000	-18.7990178759549	9.31600494934211
172000000	-17.4764922481576	160.803036403101
173000000	-18.9900780151709	-36.4710404375683
174000000	-17.8394992420438	115.601864176858
175000000	-18.8395629834318	-86.1106421977548
176000000	-18.1330649992767	74.1886985553834
177000000	-18.9142428367642	-137.189832168415
178000000	-18.033957610612	32.6421325063072
179000000	-19.051633354599	177.107766335158
180000000	-18.7067229429109	-12.9801157890207
181000000	-18.3984267698811	130.679344317944
182000000	-19.4072076280137	-56.4650267712195
183000000	-18.1131390604252	87.1515113917054
184000000	-20.2496281752632	-106.197049212933
185000000	-17.7760191618223	46.7991230640134
186000000	-21.0542395913088	-159.881019753474
187000000	-17.4707392646499	5.84628720679154
188000000	-21.0172798314417	151.885553316665
189000000	-18.3501142049214	-37.379463754731
190000000	-19.6734392023814	102.554917616798
191000000	-19.6474377771788	-79.9396469537071
192000000	-18.4889530686432	57.8885652816499
193000000	-20.9134402322306	-125.653709977199
194000000	-17.9495737798059	18.7020007809152
195000000	-22.0574548629254	-179.069152975796
196000000	-17.9346547963677	-20.3824584717922
197000000	-21.7514635121905	123.353621134085
198000000	-18.2933413793298	-59.7048144324383
199000000	-20.8304657789082	76.0607946272047
200000000	-19.8657482097556	-105.82482705194
