!Agilent N9923A: A.07.32
!Date: Tuesday, 30 August 2016 11:27:53
!Model: N9923A
!Serial: MY52412305
!GPS Latitude:
!GPS Longitude:
!GPS TimeStamp: 0001-01-01 00:00:00Z
!GPS Seconds Since Last Read: 0
!CHECKSUM:1107188192
!Correction: S11(Rdy)
!S1P File: Measurement: S11:
# Hz S DB R 50
50000000	-17.550391438344	-114.879424698599
51000000	-20.8692393459651	27.8606166087468
52000000	-19.905008331241	175.934737442663
53000000	-21.7858218219193	-53.3270830406129
54000000	-24.2080790133929	102.131255650743
55000000	-22.0037306959634	-125.032915797483
56000000	-27.7263382121394	0.383036520669972
57000000	-23.3837037112362	166.489417314073
58000000	-25.0125960039694	-86.2687810316299
59000000	-26.485653079501	90.0273403165436
60000000	-23.2789440791416	-145.113986275597
61000000	-28.2844694826206	-11.7456714645402
62000000	-23.3285413192005	156.997299170589
63000000	-24.8215780790159	-91.1668407296128
64000000	-25.3554869920616	93.0660449552408
65000000	-22.3133381731559	-146.089916444196
66000000	-28.7020563849459	14.3597465162589
67000000	-21.5974360543106	158.945747921305
68000000	-27.0179439270906	-70.2360605510925
69000000	-22.8009430171195	104.519435720267
70000000	-23.8289043589909	-133.197577873898
71000000	-25.5197223737647	46.1917219613055
72000000	-22.2430658141589	173.167721277123
73000000	-28.6986522743801	-30.379890560304
74000000	-21.8621403361964	120.748514406687
75000000	-28.1507380989783	-110.691518806978
76000000	-23.2410567520672	66.6078136891306
77000000	-25.4083207209899	-174.315068324708
78000000	-25.9885457498939	10.939826094797
79000000	-24.0736606897807	130.623683749319
80000000	-30.0481004401784	-61.3928201378234
81000000	-23.5520992059985	76.2834354064175
82000000	-30.844021009237	-144.125404008
83000000	-25.158692368732	21.2126430782989
84000000	-27.6995897856	139.002298895599
85000000	-27.1855563753908	-33.9539450761859
86000000	-26.6644859968668	79.2627506756848
87000000	-30.2387911016164	-115.01017105857
88000000	-25.5768838566222	27.327521521774
89000000	-30.3967315933442	157.757982586411
90000000	-26.0067147931245	-28.5987792098882
91000000	-27.8585321039384	90.1381471777327
92000000	-28.2943914259171	-89.948499000643
93000000	-25.7133354117775	29.9832206397182
94000000	-29.2993952568305	-163.834353463086
95000000	-25.3967054561719	-22.3373958885597
96000000	-28.3085213715291	118.416672074451
97000000	-26.5121717310615	-78.2843976875091
98000000	-25.9813577314971	49.9607707417866
99000000	-27.1078163205844	-142.793690571163
100000000	-25.1601415559601	-2.40633521080512
101000000	-27.3933822982356	140.84089434558
102000000	-25.1071964750631	-60.2976612145292
103000000	-24.8352070856285	78.1529257397761
104000000	-26.9413185259505	-116.410023161584
105000000	-23.6628237153482	19.1075856463925
106000000	-27.07185853656	165.40587294379
107000000	-23.0634507357277	-28.4463106666292
108000000	-25.9291522695004	89.9171842994938
109000000	-23.6329747446794	-87.411842555701
110000000	-23.29767494489	40.5622197598942
111000000	-26.7877308106894	-152.292189018099
112000000	-21.7193303047062	-10.6535009579928
113000000	-26.9642833957455	123.434632976219
114000000	-21.5707077304609	-58.6137552355464
115000000	-24.2136041073481	56.3797471377334
116000000	-23.7061614666906	-112.789602331742
117000000	-21.2178336653606	4.95799353929338
118000000	-26.7945001544115	-177.890868709315
119000000	-20.3799142287352	-41.1577084356795
120000000	-26.2435453796509	89.9098046762509
121000000	-20.8233829665715	-83.5476089382133
122000000	-22.5594058186891	18.4078452861151
123000000	-22.0811523590983	-133.96801592365
124000000	-20.8188452632585	-27.8562624765457
125000000	-25.5560800980561	156.360546150296
126000000	-20.1083099892449	-68.3954366540736
127000000	-25.7236258759623	57.5136800987091
128000000	-19.844029500464	-111.766895409714
129000000	-23.0004838054103	-3.60351935588719
130000000	-22.5340953613323	-162.37974966655
131000000	-20.3455280583495	-53.1464612477972
132000000	-26.1707248278335	133.756821148203
133000000	-19.8203138737376	-99.3158378863812
134000000	-25.8730290399455	46.1945010215444
135000000	-21.2680559238304	-140.541272164552
136000000	-22.3010408034664	-27.7986223195881
137000000	-22.8624058675591	-179.630192080481
138000000	-22.1692095284865	-91.822574859065
139000000	-24.7041954818951	93.3150859862568
140000000	-22.1362152091973	-120.713487848095
141000000	-28.1607379612688	2.82554658069821
142000000	-24.4425875333033	-175.341578499193
143000000	-26.9721276063954	-73.9766480737275
144000000	-33.4556127847408	102.06078075639
145000000	-29.8397407870034	-148.6110896991
146000000	-27.1036371037423	-96.1928309191955
147000000	-26.9693808929875	15.4094653790946
148000000	-19.825480434726	155.80805608094
149000000	-17.8725603781839	-87.1457003451326
150000000	-18.4092344066534	43.4574365668228
151000000	-16.6959905279719	-166.835994159765
152000000	-17.9928147814855	-38.4621370905356
153000000	-18.0427049430796	121.807676047447
154000000	-17.6620122483577	-101.932784026037
155000000	-19.3800084502514	52.2902740803297
156000000	-17.8903966933654	-159.240190723694
157000000	-19.3912471242079	-11.5093216972915
158000000	-19.0445253830458	146.203500156582
159000000	-19.0240087626493	-71.9065997638803
160000000	-20.2629261500702	87.8031354029078
161000000	-18.8638165091066	-128.61992711582
162000000	-20.5090781972411	26.6149462463015
163000000	-19.232587154888	-179.814406206334
164000000	-20.4184704012286	-33.6023083753291
165000000	-19.9757521104249	126.101617911734
166000000	-19.7924068414634	-91.4950365347483
167000000	-20.4805668950635	71.2263887751834
168000000	-19.5961202237924	-143.886393666707
169000000	-21.1425866457826	11.0075123826889
170000000	-19.3215954037467	162.726046745347
171000000	-21.3668553563722	-48.6279200240289
172000000	-19.3852496018411	108.659447632463
173000000	-21.3472325144682	-107.018059072782
174000000	-19.8660976991008	51.3434812286107
175000000	-20.5640806278528	-162.505774981631
176000000	-20.9819397900169	-4.31376374587036
177000000	-19.6674857366541	141.8502018812
178000000	-22.074268328245	-57.914606594549
179000000	-19.6104801826519	86.8896593315282
180000000	-22.2541712557665	-120.97498217778
181000000	-19.6227466371733	38.5658839277492
182000000	-22.1763485649855	176.291096417399
183000000	-20.2836193310145	-13.3943905546625
184000000	-20.8765940527502	119.74073293443
185000000	-21.9302344729566	-67.153141156878
186000000	-19.4785948621017	67.9291720064356
187000000	-23.8449701938751	-124.673391834462
188000000	-19.2343422442039	16.3942034611855
189000000	-23.342869048058	166.540518446561
190000000	-19.9526802351266	-28.3852490575455
191000000	-21.6791621648478	103.206307142594
192000000	-21.5100367533308	-75.6845999362458
193000000	-20.2451120916117	49.3810220024176
194000000	-23.8018052366396	-136.732533744299
195000000	-19.3673273652806	2.53472658029111
196000000	-24.5254546810441	151.206796375706
197000000	-19.6494892588712	-41.4178634550526
198000000	-23.070107898558	83.6103343315031
199000000	-20.839106854963	-92.0666069882676
200000000	-21.2138127037388	37.0195286785436
