!Agilent N9923A: A.07.32
!Date: Tuesday, 30 August 2016 11:27:45
!Model: N9923A
!Serial: MY52412305
!GPS Latitude:
!GPS Longitude:
!GPS TimeStamp: 0001-01-01 00:00:00Z
!GPS Seconds Since Last Read: 0
!CHECKSUM:1910317833
!Correction: S11(Rdy)
!S1P File: Measurement: S11:
# Hz S DB R 50
50000000	-36.0589140630875	-100.232794653482
51000000	-36.9713705117137	-169.068057749632
52000000	-35.7208993162394	-128.818546294795
53000000	-47.7869114262001	-163.167064731824
54000000	-34.2131590009725	-129.705516464268
55000000	-38.9710334100993	-103.551987131536
56000000	-31.7634484246654	-148.268490771037
57000000	-36.0526873211281	-133.697419191536
58000000	-33.2177728659924	-173.350523721664
59000000	-36.2018786290021	-143.063356129141
60000000	-37.7184382674111	-172.832726520815
61000000	-32.7828122385258	-146.805944994075
62000000	-37.2079157846737	-170.068375331913
63000000	-31.8536608910163	-167.495414252217
64000000	-37.968454982892	-168.267538351601
65000000	-32.189596406211	-177.489494133172
66000000	-33.7481846897946	-168.142103630267
67000000	-31.5793314689874	155.179625355856
68000000	-34.0248948748487	171.781872793181
69000000	-34.45190174347	132.35760833481
70000000	-34.3798336683886	171.46400806256
71000000	-36.7965286839386	138.373940330998
72000000	-32.5130594729315	159.521472579718
73000000	-35.1849133806368	141.284158008458
74000000	-30.9382294190667	131.162317505273
75000000	-35.3373081688019	116.152985021381
76000000	-32.5910365184073	101.711607607187
77000000	-37.8742699427429	116.882472358861
78000000	-33.8687036362033	88.0350991197859
79000000	-36.6974900180378	114.310300562852
80000000	-34.186790914058	78.3510688850376
81000000	-34.0115398371143	87.8672491818699
82000000	-34.9784694641778	44.2684298694794
83000000	-36.1052770454077	67.0916807540369
84000000	-38.2363871460597	39.0494799985092
85000000	-34.8293927952303	46.7200523762429
86000000	-41.2064352477846	10.3954092136803
87000000	-37.1780827662091	40.3207611711551
88000000	-40.5752389389461	37.7608150433471
89000000	-35.9106851834379	21.1329041980408
90000000	-38.9147172207336	19.1989051321682
91000000	-37.6533544325412	-3.61786542741077
92000000	-38.6373141832128	18.3741347753334
93000000	-37.4194424461977	-17.5691832129519
94000000	-39.4823048719541	-6.90634833121095
95000000	-40.9241416053224	-27.6392369629113
96000000	-40.7834795680835	-17.0309600814951
97000000	-44.5426014300212	-2.63432140066522
98000000	-38.9372979475492	-16.6263023073138
99000000	-44.2608637733949	-20.1234361021667
100000000	-43.4134409033271	-15.7370345827266
101000000	-41.0337147345395	3.68193165503462
102000000	-44.7121172447459	-29.9723309691507
103000000	-41.0783207330025	31.6164831102889
104000000	-38.9237315639464	12.5381294594388
105000000	-38.1961796824714	1.65325874514645
106000000	-38.3868407085707	16.4770720695946
107000000	-34.8931098826525	5.66496277403415
108000000	-33.8543808527343	-9.13979130783648
109000000	-36.0306822919164	-31.2455585531582
110000000	-37.5970911832479	-3.4919758847462
111000000	-35.2867187320198	-6.051817938502
112000000	-33.9745379809943	-7.96470871909745
113000000	-32.9399108038363	-12.1635772084862
114000000	-31.7845471491088	-22.9973457327958
115000000	-32.4776889544361	-31.536068684805
116000000	-32.9195327951592	-29.847610934932
117000000	-31.6399882727341	-29.8431379005119
118000000	-31.5346456373766	-38.0905155189566
119000000	-31.4960164621998	-38.9449282772546
120000000	-31.1331634573253	-39.1676157453497
121000000	-29.8446244798337	-40.5777994118123
122000000	-28.3918860359073	-51.5104796787325
123000000	-28.9054959276412	-67.9130987784963
124000000	-30.1975888311457	-72.4331590950076
125000000	-31.3820134445372	-74.510257404568
126000000	-31.8921190876308	-65.2714749889732
127000000	-29.7188740917205	-60.8949222749834
128000000	-28.4914497927579	-77.8181243335334
129000000	-29.834691360202	-85.2823530202669
130000000	-29.8257727076274	-86.5209588424812
131000000	-29.5753321068908	-91.6295162036329
132000000	-29.9422804843859	-98.8442760588621
133000000	-30.336015622604	-107.863466772799
134000000	-33.0918382449518	-106.04720659176
135000000	-31.9597526183099	-96.495422555171
136000000	-30.4752574414159	-90.9294799679072
137000000	-27.4679179603757	-112.581134882781
138000000	-29.204897284664	-148.040075752445
139000000	-39.0969130613445	-160.226312543009
140000000	-33.5800444912573	-101.347679189192
141000000	-33.7213348697088	-127.266446175962
142000000	-33.3868388450364	-125.537166095747
143000000	-35.8196886139676	-141.264764009705
144000000	-37.0071026561581	-130.584186969539
145000000	-37.8512144510082	-114.041611899213
146000000	-35.5548196511106	-121.51027057595
147000000	-35.2035164886259	-122.963663971145
148000000	-36.5866189726783	-148.680328535005
149000000	-41.4581221772823	-118.292125583721
150000000	-37.0473386352354	-96.285772379408
151000000	-33.1504687183112	-121.89900684167
152000000	-35.6838103456709	-139.043868827592
153000000	-35.6988169549687	-149.314972819135
154000000	-39.1166697410816	-141.796602945396
155000000	-38.0064416859423	-149.447300077712
156000000	-38.3596510090205	-146.554730952511
157000000	-43.4478814574209	-167.452848252426
158000000	-38.9284338795849	-128.121057194656
159000000	-43.4344878365826	-140.142643984097
160000000	-36.8403633033862	-135.983002681047
161000000	-40.6999043349969	-158.836644713642
162000000	-39.8072719844993	-162.654485455798
163000000	-42.4794222761736	-142.136562282563
164000000	-40.864297810221	-173.57378654924
165000000	-41.8824237895732	-135.623286187388
166000000	-40.3881269180828	-168.340937199373
167000000	-39.5886726263498	-168.497808677313
168000000	-44.1486359354096	177.958969211641
169000000	-38.2883779366886	-176.107071410848
170000000	-41.2048930477562	166.905145402903
171000000	-36.9056312649348	150.575662265465
172000000	-40.3628046241085	134.941663409841
173000000	-36.6934580278838	108.180344939129
174000000	-45.7953494090812	83.8573925801929
175000000	-42.2465956630105	92.9631867559326
176000000	-43.4538573511018	145.59854636229
177000000	-37.9393266164669	106.533705284067
178000000	-36.0921175331307	97.7040837197171
179000000	-37.2663121017474	61.2633820736141
180000000	-36.6880916330801	81.4340257103948
181000000	-36.5305225446943	59.7480757584755
182000000	-34.1140161859455	56.1053402945341
183000000	-37.0673203921719	40.0769717221147
184000000	-34.3784828605236	43.3932980864981
185000000	-36.3115748389822	47.0907048586997
186000000	-32.2763597975016	35.7218033222107
187000000	-32.5160334204959	28.4354791164944
188000000	-32.1114249296567	1.99213629460161
189000000	-35.0095956483563	16.9003541845787
190000000	-34.15590394253	1.02047003910839
191000000	-33.760872489385	19.5658185758226
192000000	-33.2646336108351	4.02207026481974
193000000	-32.1978259379689	3.46965762217881
194000000	-33.5079059824259	1.38785164454265
195000000	-31.2780672540188	-7.5069307747561
196000000	-33.2237936235037	-4.41727094548633
197000000	-31.1131775091881	-16.6267462834102
198000000	-31.9153338717866	-16.2296576808895
199000000	-32.5538681085149	-40.5504949097682
200000000	-35.3932348533172	-14.7256431402489
