!Agilent N9923A: A.07.32
!Date: Tuesday, 30 August 2016 11:27:29
!Model: N9923A
!Serial: MY52412305
!GPS Latitude:
!GPS Longitude:
!GPS TimeStamp: 0001-01-01 00:00:00Z
!GPS Seconds Since Last Read: 0
!CHECKSUM:0467744184
!Correction: S11(Rdy)
!S1P File: Measurement: S11:
# Hz S DB R 50
50000000	-9.13546526423494	-102.688159100821
51000000	-9.91132627920335	55.4099621569086
52000000	-9.27381111361256	-148.403233579739
53000000	-9.97638015249853	7.42045990019052
54000000	-9.60743712777204	167.572195328001
55000000	-9.91623775293595	-40.3781003004918
56000000	-10.0112200390292	123.085229527157
57000000	-9.8755354147346	-86.7958462805967
58000000	-10.4238708383722	75.7330987915963
59000000	-9.87957656141905	-131.430036134585
60000000	-10.7663164664172	26.2447255256436
61000000	-9.92288127797254	-174.707872044387
62000000	-10.9475058731905	-22.0105813725778
63000000	-10.1970416369812	140.977441432008
64000000	-10.8546454860805	-69.0267114520721
65000000	-10.7487130810928	95.6293044265035
66000000	-10.6314165721922	-115.963068231299
67000000	-11.194148885885	49.8357907543603
68000000	-10.6201962507567	-160.342330052032
69000000	-11.5416169775857	1.38461903469543
70000000	-10.714976397908	156.947915840017
71000000	-11.7811728011099	-48.2918956849374
72000000	-10.9113083715963	113.675715980474
73000000	-11.8277863216489	-97.3989546618878
74000000	-11.17071498968	69.5230193024466
75000000	-11.8262664363228	-143.676033095056
76000000	-11.5908824557502	22.9399933770486
77000000	-11.6702477314529	172.14828648367
78000000	-12.1270568460954	-24.1111007477178
79000000	-11.5761849233352	128.140766325921
80000000	-12.6039845500638	-72.4962976723622
81000000	-11.5333752356697	83.506321641998
82000000	-12.8129947255821	-119.395447372682
83000000	-11.8227119959571	39.0081378286738
84000000	-12.818127587922	-167.821726582374
85000000	-12.0453221457206	-5.0847421811601
86000000	-12.7970942760289	146.534676223109
87000000	-12.5505562196248	-51.4578726834728
88000000	-12.575917634015	100.164504098009
89000000	-12.9834206187309	-97.3761091124711
90000000	-12.5133225187264	54.8449402796742
91000000	-13.2709152129402	-144.748351029787
92000000	-12.5323143245251	11.2467031054739
93000000	-13.5444310999884	167.702108207047
94000000	-12.7126029650751	-34.0383630287545
95000000	-13.4918900920664	120.300086771453
96000000	-13.0593364122998	-79.2121914939681
97000000	-13.2880436479733	74.4501151331474
98000000	-13.5036467034701	-124.211685298432
99000000	-13.2674659549443	28.8484538103969
100000000	-13.7911119839289	-172.384457540646
101000000	-13.2326805477337	-14.9550251984647
102000000	-13.9100867944617	141.152459303071
103000000	-13.6617663829482	-59.4374252892598
104000000	-13.7363290400217	92.1796830562965
105000000	-14.0114744382073	-104.563052572834
106000000	-13.507037726834	48.0313260489241
107000000	-14.7475290845175	-151.855702160449
108000000	-13.2448908934914	2.58177843290615
109000000	-14.8917663168723	161.825941557078
110000000	-13.6731379451784	-39.8972156656359
111000000	-14.7101908518465	110.16979264472
112000000	-14.0916738500313	-82.5716289019609
113000000	-14.2702967885144	62.6089653377397
114000000	-14.8060245232212	-126.559611744981
115000000	-13.912966541867	17.9245738703424
116000000	-15.6153214230784	-176.410741066831
117000000	-13.556531620059	-23.1102258271156
118000000	-16.1784429437165	132.888661707858
119000000	-13.7309888742072	-64.5836269544436
120000000	-15.7992968599415	80.8273436215356
121000000	-14.3621397621848	-104.857306357659
122000000	-15.0940481592283	30.4112360712702
123000000	-15.005462504701	-148.388087068248
124000000	-14.6305071720273	-11.4030797730933
125000000	-16.1717030766924	161.451932044049
126000000	-14.1813621501843	-50.192009004277
127000000	-17.293697202989	105.278965776981
128000000	-13.8159868355583	-90.8145188058806
129000000	-17.155164207034	55.9257712433612
130000000	-14.54283416741	-131.579023644421
131000000	-16.1991921289841	5.65427703881283
132000000	-15.4668515003569	-174.561480707783
133000000	-15.4681687251076	-38.4803555745575
134000000	-16.5866812861866	135.502388017179
135000000	-14.8385002834213	-76.6127745133472
136000000	-17.9237226126166	81.3314261604851
137000000	-14.1317939737272	-117.198952610137
138000000	-18.2442949218729	40.044051120997
139000000	-15.5500037465025	-165.056796076027
140000000	-16.3882570859667	-16.3250579541511
141000000	-16.1738238098535	157.120939970288
142000000	-16.0604714080887	-60.8350221281253
143000000	-16.8498259553717	109.911568837771
144000000	-15.8890783942621	-101.386346265784
145000000	-17.3752648042277	57.4433323295693
146000000	-15.808160164785	-142.003561938288
147000000	-17.4429214496154	7.17700288004278
148000000	-16.1544724369295	173.583739922763
149000000	-16.7691087753104	-36.2409152631537
150000000	-17.490980646058	128.019043074185
151000000	-16.0012830415907	-84.4673585861675
152000000	-17.8129608379853	83.0648910721591
153000000	-16.1893691569603	-127.106049771616
154000000	-17.8340851464473	32.3353184843583
155000000	-16.4732657113659	-168.459515690324
156000000	-17.7299119460855	-17.015611511957
157000000	-17.0407166289798	145.883135776259
158000000	-17.1090698693638	-63.2685024150402
159000000	-17.7010324868378	100.812759870617
160000000	-16.7622149964653	-107.348074509401
161000000	-18.1169431850581	55.1892592536813
162000000	-16.9871858568524	-150.912245316215
163000000	-18.1432293541913	5.2812959450185
164000000	-17.2187107615244	165.651931941932
165000000	-17.901607785891	-42.1037955493154
166000000	-17.6564626364676	122.750632632179
167000000	-17.8408425132602	-88.8842743387234
168000000	-18.0994581838967	75.5242559507733
169000000	-17.516494167105	-133.649528443069
170000000	-18.6177954761878	29.8231269537003
171000000	-17.4250862613311	-178.871663376383
172000000	-18.9304059131555	-16.4324002373877
173000000	-17.5119185876854	135.679691867399
174000000	-18.8013652994742	-62.5516952187398
175000000	-17.938772910126	93.5151738844048
176000000	-18.740090271227	-112.55250223653
177000000	-18.069123396601	53.0217766739897
178000000	-18.9996965373545	-162.674434091734
179000000	-18.1917797417518	7.59111441600367
180000000	-18.5845322203391	152.818376538489
181000000	-19.0454563617681	-35.96660470786
182000000	-18.1226657884633	106.495525600577
183000000	-19.7018660931673	-82.9900421393753
184000000	-17.8025225168721	65.2072706942098
185000000	-20.4953935285146	-134.686165339995
186000000	-17.4673939860877	25.6470614354844
187000000	-21.0852213035402	172.851320924503
188000000	-17.6422563301222	-18.0220750461275
189000000	-20.0758401291588	126.060354845644
190000000	-18.7459308348466	-58.7328976883782
191000000	-18.8598996920932	80.2266926463429
192000000	-20.184455513863	-102.041635759076
193000000	-18.0879306050244	36.8471312133392
194000000	-21.463228379366	-154.526886503165
195000000	-17.6711193923281	-2.73971379425257
196000000	-21.72443760936	150.082712059146
197000000	-17.9095516899982	-40.6442524385213
198000000	-21.0791063791407	96.5581411109836
199000000	-18.6567398458594	-83.5237350868678
200000000	-19.6668874805819	55.7323891214221
